T47A8 227:081 SEGGER J-Link V6.30h Log File (0001ms, 4253ms total)
T47A8 227:081 DLL Compiled: Mar 16 2018 18:02:51 (0001ms, 4253ms total)
T47A8 227:081 Logging started @ 2018-10-30 21:39 (0001ms, 4253ms total)
T47A8 227:082 JLINK_SetWarnOutHandler(...) (0000ms, 4253ms total)
T47A8 227:082 JLINK_OpenEx(...)
Firmware: J-Link STLink V2 compiled Dec 21 2016 15:10:22
Hardware: V1.00
S/N: 776958574
TELNET listener socket opened on port 19021WEBSRV 
Starting webserver (0119ms, 4372ms total)
T47A8 227:082 WEBSRV Webserver running on local port 19080 (0119ms, 4372ms total)
T47A8 227:082   returns O.K. (0119ms, 4372ms total)
T47A8 227:201 JLINK_GetEmuCaps()  returns 0x98EA5A33 (0000ms, 4372ms total)
T47A8 227:202 JLINK_TIF_GetAvailable(...) (0001ms, 4373ms total)
T47A8 227:203 JLINK_SetErrorOutHandler(...) (0000ms, 4373ms total)
T47A8 227:203 JLINK_ExecCommand("ProjectFile = "C:\Work\emWin\stm32f4\cube\cube_emwin\MDK-ARM\JLinkSettings.ini"", ...).   returns 0x00 (0002ms, 4375ms total)
T47A8 227:205 JLINK_ExecCommand("Device = STM32F429ZITx", ...). Device "STM32F429ZI" selected.  returns 0x00 (0001ms, 4376ms total)
T47A8 227:206 JLINK_ExecCommand("DisableConnectionTimeout", ...).   returns 0x01 (0000ms, 4376ms total)
T47A8 227:206 JLINK_GetHardwareVersion()  returns 0x2710 (0000ms, 4376ms total)
T47A8 227:206 JLINK_GetDLLVersion()  returns 63008 (0000ms, 4376ms total)
T47A8 227:206 JLINK_GetFirmwareString(...) (0000ms, 4376ms total)
T47A8 227:206 JLINK_GetDLLVersion()  returns 63008 (0000ms, 4376ms total)
T47A8 227:206 JLINK_GetCompileDateTime() (0000ms, 4376ms total)
T47A8 227:206 JLINK_GetFirmwareString(...) (0000ms, 4376ms total)
T47A8 227:206 JLINK_GetHardwareVersion()  returns 0x2710 (0000ms, 4376ms total)
T47A8 227:207 JLINK_TIF_Select(JLINKARM_TIF_SWD)  returns 0x00 (0002ms, 4379ms total)
T47A8 227:209 JLINK_SetSpeed(5000) (0001ms, 4380ms total)
T47A8 227:210 JLINK_GetId() >0x10B TIF>Found SW-DP with ID 0x4BA01477 >0x0D TIF> >0x28 TIF> >0x0D TIF> >0x28 TIF> >0x0D TIF> >0x28 TIF> >0x0D TIF> >0x28 TIF> >0x0D TIF> >0x21 TIF> >0x0D TIF> >0x28 TIF> >0x0D TIF> >0x28 TIF> >0x0D TIF> >0x28 TIF> >0x0D TIF> >0x21 TIF> >0x0D TIF> >0x21 TIF> >0x0D TIF> >0x28 TIF> >0x0D TIF> >0x21 TIF> >0x0D TIF> >0x21 TIF> >0x0D TIF> >0x28 TIF> >0x0D TIF> >0x21 TIF> >0x0D TIF> >0x21 TIF> >0x0D TIF> >0x28 TIF> >0x0D TIF> >0x21 TIF> >0x0D TIF> >0x21 TIF> >0x0D TIF> >0x28 TIF>
 >0x0D TIF> >0x21 TIF> >0x0D TIF> >0x21 TIF> >0x0D TIF> >0x28 TIF> >0x0D TIF> >0x21 TIF> >0x0D TIF> >0x21 TIF> >0x0D TIF> >0x28 TIF> >0x0D TIF> >0x21 TIF> >0x0D TIF> >0x21 TIF> >0x10B TIF>Found SW-DP with ID 0x4BA01477 >0x0D TIF> >0x28 TIF> >0x0D TIF> >0x28 TIF> >0x0D TIF> >0x28 TIF> >0x0D TIF> >0x28 TIF> >0x0D TIF> >0x21 TIF> >0x0D TIF> >0x28 TIF>Scanning AP map to find all available APs >0x0D TIF> >0x28 TIF> >0x0D TIF> >0x21 TIF> >0x0D TIF> >0x21 TIF> >0x0D TIF> >0x28 TIF> >0x0D TIF> >0x21 TIF>
 >0x0D TIF> >0x21 TIF>AP[1]: Stopped AP scan as end of AP map has been reachedAP[0]: AHB-AP (IDR: 0x24770011)Iterating through AP map to find AHB-AP to use >0x42 TIF> >0x28 TIF> >0x0D TIF> >0x28 TIF> >0x0D TIF> >0x21 TIF> >0x0D TIF> >0x21 TIF> >0x42 TIF> >0x28 TIF> >0x0D TIF> >0x28 TIF> >0x0D TIF> >0x28 TIF> >0x0D TIF> >0x21 TIF> >0x0D TIF> >0x21 TIF>AP[0]: Core foundAP[0]: AHB-AP ROM base: 0xE00FF000 >0x0D TIF> >0x28 TIF> >0x0D TIF> >0x28 TIF> >0x0D TIF> >0x28 TIF> >0x0D TIF> >0x21 TIF> >0x0D TIF>
 >0x21 TIF>CPUID register: 0x410FC241. Implementer code: 0x41 (ARM)Found Cortex-M4 r0p1, Little endian. -- CPU_ReadMem(4 bytes @ 0xE000EDF0) -- CPU_WriteMem(4 bytes @ 0xE000EDF0) -- CPU_ReadMem(4 bytes @ 0xE0002000)FPUnit: 6 code (BP) slots and 2 literal slots -- CPU_ReadMem(4 bytes @ 0xE000EDFC) -- CPU_WriteMem(4 bytes @ 0xE000EDFC) -- CPU_ReadMem(4 bytes @ 0xE0001000) -- CPU_WriteMem(4 bytes @ 0xE0001000) -- CPU_ReadMem(4 bytes @ 0xE000ED88) -- CPU_WriteMem(4 bytes @ 0xE000ED88)
 -- CPU_ReadMem(4 bytes @ 0xE000ED88) -- CPU_WriteMem(4 bytes @ 0xE000ED88)CoreSight components:ROMTbl[0] @ E00FF000 -- CPU_ReadMem(16 bytes @ 0xE00FF000) -- CPU_ReadMem(16 bytes @ 0xE000EFF0) -- CPU_ReadMem(16 bytes @ 0xE000EFE0)ROMTbl[0][0]: E000E000, CID: B105E00D, PID: 000BB00C SCS-M7 -- CPU_ReadMem(16 bytes @ 0xE0001FF0) -- CPU_ReadMem(16 bytes @ 0xE0001FE0)ROMTbl[0][1]: E0001000, CID: B105E00D, PID: 003BB002 DWT -- CPU_ReadMem(16 bytes @ 0xE0002FF0) -- CPU_ReadMem(16 bytes @ 0xE0002FE0)
ROMTbl[0][2]: E0002000, CID: B105E00D, PID: 002BB003 FPB -- CPU_ReadMem(16 bytes @ 0xE0000FF0) -- CPU_ReadMem(16 bytes @ 0xE0000FE0)ROMTbl[0][3]: E0000000, CID: B105E00D, PID: 003BB001 ITM -- CPU_ReadMem(16 bytes @ 0xE00FF010) -- CPU_ReadMem(16 bytes @ 0xE0040FF0) -- CPU_ReadMem(16 bytes @ 0xE0040FE0)ROMTbl[0][4]: E0040000, CID: B105900D, PID: 000BB9A1 TPIU -- CPU_ReadMem(16 bytes @ 0xE0041FF0) -- CPU_ReadMem(16 bytes @ 0xE0041FE0)ROMTbl[0][5]: E0041000, CID: B105900D, PID: 000BB925 ETM >0x0D TIF>
 >0x21 TIF>  returns 0x2BA01477 (0209ms, 4589ms total)
T47A8 227:420 JLINK_GetDLLVersion()  returns 63008 (0000ms, 4589ms total)
T47A8 227:420 JLINK_CORE_GetFound()  returns 0xE0000FF (0000ms, 4589ms total)
T47A8 227:420 JLINK_GetDebugInfo(0x100 = JLINKARM_ROM_TABLE_ADDR_INDEX) -- Value=0xE00FF000  returns 0x00 (0000ms, 4589ms total)
T47A8 227:420 JLINK_GetDebugInfo(0x100 = JLINKARM_ROM_TABLE_ADDR_INDEX) -- Value=0xE00FF000  returns 0x00 (0000ms, 4589ms total)
T47A8 227:420 JLINK_GetDebugInfo(0x101 = JLINKARM_DEBUG_INFO_ETM_ADDR_INDEX) -- Value=0xE0041000  returns 0x00 (0000ms, 4589ms total)
T47A8 227:420 JLINK_ReadMemEx(0xE0041FD0, 0x0020 Bytes, ..., Flags = 0x02000004) -- CPU_ReadMem(32 bytes @ 0xE0041FD0) - Data: 04 00 00 00 00 00 00 00 00 00 00 00 00 00 00 00 ...  returns 0x20 (0001ms, 4590ms total)
T47A8 227:421 JLINK_GetDebugInfo(0x102 = JLINKARM_DEBUG_INFO_MTB_ADDR_INDEX) -- Value=0x00000000  returns 0x00 (0000ms, 4590ms total)
T47A8 227:421 JLINK_GetDebugInfo(0x103 = JLINKARM_DEBUG_INFO_TPIU_ADDR_INDEX) -- Value=0xE0040000  returns 0x00 (0000ms, 4590ms total)
T47A8 227:421 JLINK_GetDebugInfo(0x104 = JLINKARM_DEBUG_INFO_ITM_ADDR_INDEX) -- Value=0xE0000000  returns 0x00 (0000ms, 4590ms total)
T47A8 227:421 JLINK_GetDebugInfo(0x105 = JLINKARM_DEBUG_INFO_DWT_ADDR_INDEX) -- Value=0xE0001000  returns 0x00 (0000ms, 4590ms total)
T47A8 227:421 JLINK_GetDebugInfo(0x106 = JLINKARM_DEBUG_INFO_FPB_ADDR_INDEX) -- Value=0xE0002000  returns 0x00 (0000ms, 4590ms total)
T47A8 227:422 JLINK_GetDebugInfo(0x107 = JLINKARM_DEBUG_INFO_NVIC_ADDR_INDEX) -- Value=0xE000E000  returns 0x00 (0000ms, 4590ms total)
T47A8 227:422 JLINK_GetDebugInfo(0x10C = JLINKARM_DEBUG_INFO_DBG_ADDR_INDEX) -- Value=0xE000EDF0  returns 0x00 (0000ms, 4590ms total)
T47A8 227:422 JLINK_GetDebugInfo(0x01 = Unknown) -- Value=0x00000001  returns 0x00 (0000ms, 4590ms total)
T47A8 227:422 JLINK_ReadMemU32(0xE000ED00, 0x0001 Items, ...) -- CPU_ReadMem(4 bytes @ 0xE000ED00) - Data: 41 C2 0F 41  returns 0x01 (0000ms, 4590ms total)
T47A8 227:422 JLINK_GetDebugInfo(0x10F = JLINKARM_DEBUG_INFO_HAS_CORTEX_M_SECURITY_EXT_INDEX) -- Value=0x00000000  returns 0x00 (0001ms, 4591ms total)
T47A8 227:423 JLINK_SetResetType(JLINKARM_CM3_RESET_TYPE_NORMAL)  returns JLINKARM_CM3_RESET_TYPE_NORMAL (0000ms, 4591ms total)
T47A8 227:423 JLINK_Reset() -- CPU is running -- CPU_WriteMem(4 bytes @ 0xE000EDF0) -- CPU is running -- CPU_WriteMem(4 bytes @ 0xE000EDFC)Reset: Halt core after reset via DEMCR.VC_CORERESET. >0x35 TIF>Reset: Reset device via AIRCR.SYSRESETREQ. -- CPU is running -- CPU_WriteMem(4 bytes @ 0xE000ED0C) >0x0D TIF> >0x28 TIF> -- CPU_ReadMem(4 bytes @ 0xE000EDF0) -- CPU_ReadMem(4 bytes @ 0xE000EDF0) -- CPU is running -- CPU_WriteMem(4 bytes @ 0xE000EDF0) -- CPU is running -- CPU_WriteMem(4 bytes @ 0xE000EDFC)
 -- CPU_ReadMem(4 bytes @ 0xE000EDF0) -- CPU_WriteMem(4 bytes @ 0xE0002000) -- CPU_ReadMem(4 bytes @ 0xE000EDFC) -- CPU_ReadMem(4 bytes @ 0xE0001000) (0074ms, 4665ms total)
T47A8 227:497 JLINK_ReadReg(R15 (PC))  returns 0x080001C0 (0000ms, 4665ms total)
T47A8 227:497 JLINK_ReadReg(XPSR)  returns 0x01000000 (0001ms, 4666ms total)
T47A8 227:498 JLINK_Halt()  returns 0x00 (0000ms, 4666ms total)
T47A8 227:498 JLINK_ReadMemU32(0xE000EDF0, 0x0001 Items, ...) -- CPU_ReadMem(4 bytes @ 0xE000EDF0) - Data: 03 00 03 00  returns 0x01 (0000ms, 4666ms total)
T47A8 227:498 JLINK_WriteU32(0xE000EDF0, 0xA05F0003) -- CPU_WriteMem(4 bytes @ 0xE000EDF0)  returns 0x00 (0002ms, 4668ms total)
T47A8 227:500 JLINK_WriteU32(0xE000EDFC, 0x01000000) -- CPU_WriteMem(4 bytes @ 0xE000EDFC)  returns 0x00 (0001ms, 4669ms total)
T47A8 227:501 JLINK_GetHWStatus(...)  returns 0x00 (0001ms, 4670ms total)
T47A8 227:502 JLINK_GetNumBPUnits(Type = 0xFFFFFF00)  returns 0x06 (0000ms, 4670ms total)
T47A8 227:502 JLINK_GetNumBPUnits(Type = 0xF0)  returns 0x2000 (0000ms, 4670ms total)
T47A8 227:502 JLINK_GetNumWPUnits()  returns 0x04 (0000ms, 4670ms total)
T47A8 227:502 JLINK_GetSpeed()  returns 0xFA0 (0000ms, 4670ms total)
T47A8 227:502 JLINK_ReadMemU32(0xE000E004, 0x0001 Items, ...) -- CPU_ReadMem(4 bytes @ 0xE000E004) - Data: 02 00 00 00  returns 0x01 (0001ms, 4671ms total)
T47A8 227:503 JLINK_ReadMemU32(0xE000E004, 0x0001 Items, ...) -- CPU_ReadMem(4 bytes @ 0xE000E004) - Data: 02 00 00 00  returns 0x01 (0001ms, 4672ms total)
T47A8 227:504 JLINK_WriteMemEx(0xE0001000, 0x001C Bytes, ..., Flags = 0x02000004) - Data: 01 00 00 00 00 00 00 00 00 00 00 00 00 00 00 00 ... -- CPU_WriteMem(28 bytes @ 0xE0001000)  returns 0x1C (0003ms, 4675ms total)
T47A8 227:507 JLINK_ReadReg(R15 (PC))  returns 0x080001C0 (0000ms, 4675ms total)
T47A8 227:507 JLINK_ReadReg(XPSR)  returns 0x01000000 (0000ms, 4675ms total)
T47A8 227:666 JLINK_SetResetType(JLINKARM_CM3_RESET_TYPE_NORMAL)  returns JLINKARM_CM3_RESET_TYPE_NORMAL (0000ms, 4675ms total)
T47A8 227:666 JLINK_Reset() -- CPU_WriteMem(4 bytes @ 0xE000EDF0) -- CPU_WriteMem(4 bytes @ 0xE000EDFC)Reset: Halt core after reset via DEMCR.VC_CORERESET. >0x35 TIF>Reset: Reset device via AIRCR.SYSRESETREQ. -- CPU_WriteMem(4 bytes @ 0xE000ED0C) >0x0D TIF> >0x28 TIF> -- CPU_ReadMem(4 bytes @ 0xE000EDF0) -- CPU_ReadMem(4 bytes @ 0xE000EDF0) -- CPU_WriteMem(4 bytes @ 0xE000EDF0) -- CPU_WriteMem(4 bytes @ 0xE000EDFC) -- CPU_ReadMem(4 bytes @ 0xE000EDF0) -- CPU_WriteMem(4 bytes @ 0xE0002000)
 -- CPU_ReadMem(4 bytes @ 0xE000EDFC) -- CPU_ReadMem(4 bytes @ 0xE0001000) (0075ms, 4750ms total)
T47A8 227:741 JLINK_ReadReg(R15 (PC))  returns 0x080001C0 (0000ms, 4750ms total)
T47A8 227:741 JLINK_ReadReg(XPSR)  returns 0x01000000 (0000ms, 4750ms total)
T47A8 227:742 JLINK_ReadMemEx(0x080001C0, 0x003C Bytes, ..., Flags = 0x02000000) -- CPU_ReadMem(64 bytes @ 0x080001C0) -- Updating C cache (64 bytes @ 0x080001C0) -- Read from C cache (60 bytes @ 0x080001C0) - Data: 06 48 80 47 06 48 00 47 FE E7 FE E7 FE E7 FE E7 ...  returns 0x3C (0001ms, 4751ms total)
T47A8 227:918 JLINK_ReadMemEx(0x40005C00, 0x0024 Bytes, ..., Flags = 0x02000004) -- CPU_ReadMem(36 bytes @ 0x40005C00) - Data: 00 00 00 00 00 00 00 00 00 00 00 00 00 00 00 00 ...  returns 0x24 (0001ms, 4753ms total)
T47A8 227:919 JLINK_ReadMemEx(0x40005C00, 0x0004 Bytes, ..., Flags = 0x02000004) -- CPU_ReadMem(4 bytes @ 0x40005C00) - Data: 00 00 00 00  returns 0x04 (0001ms, 4754ms total)
T47A8 227:920 JLINK_ReadMemEx(0x40005C04, 0x0004 Bytes, ..., Flags = 0x02000004) -- CPU_ReadMem(4 bytes @ 0x40005C04) - Data: 00 00 00 00  returns 0x04 (0000ms, 4754ms total)
T47A8 227:920 JLINK_ReadMemEx(0x40005C08, 0x0004 Bytes, ..., Flags = 0x02000004) -- CPU_ReadMem(4 bytes @ 0x40005C08) - Data: 00 00 00 00  returns 0x04 (0002ms, 4756ms total)
T47A8 227:922 JLINK_ReadMemEx(0x40005C0C, 0x0004 Bytes, ..., Flags = 0x02000004) -- CPU_ReadMem(4 bytes @ 0x40005C0C) - Data: 00 00 00 00  returns 0x04 (0001ms, 4757ms total)
T47A8 227:923 JLINK_ReadMemEx(0x40005C10, 0x0004 Bytes, ..., Flags = 0x02000004) -- CPU_ReadMem(4 bytes @ 0x40005C10) - Data: 00 00 00 00  returns 0x04 (0001ms, 4758ms total)
T47A8 227:924 JLINK_ReadMemEx(0x40005C14, 0x0004 Bytes, ..., Flags = 0x02000004) -- CPU_ReadMem(4 bytes @ 0x40005C14) - Data: 00 00 00 00  returns 0x04 (0001ms, 4759ms total)
T47A8 227:925 JLINK_ReadMemEx(0x40005C18, 0x0004 Bytes, ..., Flags = 0x02000004) -- CPU_ReadMem(4 bytes @ 0x40005C18) - Data: 00 00 00 00  returns 0x04 (0001ms, 4760ms total)
T47A8 227:926 JLINK_ReadMemEx(0x40005C1C, 0x0004 Bytes, ..., Flags = 0x02000004) -- CPU_ReadMem(4 bytes @ 0x40005C1C) - Data: 00 00 00 00  returns 0x04 (0001ms, 4761ms total)
T47A8 227:927 JLINK_ReadMemEx(0x40005C20, 0x0004 Bytes, ..., Flags = 0x02000004) -- CPU_ReadMem(4 bytes @ 0x40005C20) - Data: 00 00 00 00  returns 0x04 (0001ms, 4762ms total)
T47A8 227:928 JLINK_ReadMemEx(0x40005C24, 0x0004 Bytes, ..., Flags = 0x02000004) -- CPU_ReadMem(4 bytes @ 0x40005C24) - Data: 00 00 00 00  returns 0x04 (0001ms, 4763ms total)
T47A8 227:929 JLINK_ReadMemEx(0x40005C24, 0x0004 Bytes, ..., Flags = 0x02000004) -- CPU_ReadMem(4 bytes @ 0x40005C24) - Data: 00 00 00 00  returns 0x04 (0000ms, 4763ms total)
T47A8 229:563 JLINK_ReadReg(R0)  returns 0x00000000 (0001ms, 4764ms total)
T47A8 229:564 JLINK_ReadReg(R1)  returns 0x00000000 (0000ms, 4764ms total)
T47A8 229:564 JLINK_ReadReg(R2)  returns 0x00000000 (0000ms, 4764ms total)
T47A8 229:564 JLINK_ReadReg(R3)  returns 0x00000000 (0000ms, 4764ms total)
T47A8 229:564 JLINK_ReadReg(R4)  returns 0x00000000 (0000ms, 4764ms total)
T47A8 229:564 JLINK_ReadReg(R5)  returns 0x00000000 (0000ms, 4764ms total)
T47A8 229:564 JLINK_ReadReg(R6)  returns 0x00000000 (0000ms, 4764ms total)
T47A8 229:564 JLINK_ReadReg(R7)  returns 0x00000000 (0000ms, 4764ms total)
T47A8 229:564 JLINK_ReadReg(R8)  returns 0x00000000 (0000ms, 4764ms total)
T47A8 229:564 JLINK_ReadReg(R9)  returns 0x00000000 (0000ms, 4764ms total)
T47A8 229:564 JLINK_ReadReg(R10)  returns 0x00000000 (0000ms, 4764ms total)
T47A8 229:564 JLINK_ReadReg(R11)  returns 0x00000000 (0000ms, 4764ms total)
T47A8 229:564 JLINK_ReadReg(R12)  returns 0x00000000 (0000ms, 4764ms total)
T47A8 229:564 JLINK_ReadReg(R13 (SP))  returns 0x2001C278 (0000ms, 4764ms total)
T47A8 229:564 JLINK_ReadReg(R14)  returns 0xFFFFFFFF (0000ms, 4764ms total)
T47A8 229:564 JLINK_ReadReg(R15 (PC))  returns 0x080001C0 (0000ms, 4764ms total)
T47A8 229:564 JLINK_ReadReg(XPSR)  returns 0x01000000 (0000ms, 4764ms total)
T47A8 229:564 JLINK_ReadReg(MSP)  returns 0x2001C278 (0000ms, 4764ms total)
T47A8 229:564 JLINK_ReadReg(PSP)  returns 0x00000000 (0000ms, 4764ms total)
T47A8 229:564 JLINK_ReadReg(CFBP)  returns 0x00000000 (0000ms, 4764ms total)
T47A8 229:564 JLINK_ReadReg(FPSCR)  returns 0x00000000 (0005ms, 4769ms total)
T47A8 229:569 JLINK_ReadReg(FPS0)  returns 0x00000000 (0000ms, 4769ms total)
T47A8 229:569 JLINK_ReadReg(FPS1)  returns 0x00000000 (0000ms, 4769ms total)
T47A8 229:569 JLINK_ReadReg(FPS2)  returns 0x00000000 (0000ms, 4769ms total)
T47A8 229:569 JLINK_ReadReg(FPS3)  returns 0x00000000 (0000ms, 4769ms total)
T47A8 229:569 JLINK_ReadReg(FPS4)  returns 0x00000000 (0000ms, 4769ms total)
T47A8 229:569 JLINK_ReadReg(FPS5)  returns 0x00000000 (0000ms, 4769ms total)
T47A8 229:569 JLINK_ReadReg(FPS6)  returns 0x00000000 (0000ms, 4769ms total)
T47A8 229:569 JLINK_ReadReg(FPS7)  returns 0x00000000 (0000ms, 4769ms total)
T47A8 229:569 JLINK_ReadReg(FPS8)  returns 0x00000000 (0000ms, 4769ms total)
T47A8 229:569 JLINK_ReadReg(FPS9)  returns 0x00000000 (0000ms, 4769ms total)
T47A8 229:569 JLINK_ReadReg(FPS10)  returns 0x00000000 (0001ms, 4770ms total)
T47A8 229:570 JLINK_ReadReg(FPS11)  returns 0x00000000 (0000ms, 4770ms total)
T47A8 229:570 JLINK_ReadReg(FPS12)  returns 0x00000000 (0000ms, 4770ms total)
T47A8 229:570 JLINK_ReadReg(FPS13)  returns 0x00000000 (0000ms, 4770ms total)
T47A8 229:570 JLINK_ReadReg(FPS14)  returns 0x00000000 (0000ms, 4770ms total)
T47A8 229:570 JLINK_ReadReg(FPS15)  returns 0x00000000 (0000ms, 4770ms total)
T47A8 229:570 JLINK_ReadReg(FPS16)  returns 0x00000000 (0000ms, 4770ms total)
T47A8 229:570 JLINK_ReadReg(FPS17)  returns 0x00000000 (0000ms, 4770ms total)
T47A8 229:570 JLINK_ReadReg(FPS18)  returns 0x00000000 (0000ms, 4770ms total)
T47A8 229:570 JLINK_ReadReg(FPS19)  returns 0x00000000 (0000ms, 4770ms total)
T47A8 229:570 JLINK_ReadReg(FPS20)  returns 0x00000000 (0000ms, 4770ms total)
T47A8 229:570 JLINK_ReadReg(FPS21)  returns 0x00000000 (0000ms, 4770ms total)
T47A8 229:570 JLINK_ReadReg(FPS22)  returns 0x00000000 (0000ms, 4770ms total)
T47A8 229:570 JLINK_ReadReg(FPS23)  returns 0x00000000 (0000ms, 4770ms total)
T47A8 229:570 JLINK_ReadReg(FPS24)  returns 0x00000000 (0000ms, 4770ms total)
T47A8 229:570 JLINK_ReadReg(FPS25)  returns 0x00000000 (0000ms, 4770ms total)
T47A8 229:570 JLINK_ReadReg(FPS26)  returns 0x00000000 (0000ms, 4770ms total)
T47A8 229:570 JLINK_ReadReg(FPS27)  returns 0x00000000 (0000ms, 4770ms total)
T47A8 229:570 JLINK_ReadReg(FPS28)  returns 0x00000000 (0000ms, 4770ms total)
T47A8 229:570 JLINK_ReadReg(FPS29)  returns 0x00000000 (0000ms, 4770ms total)
T47A8 229:570 JLINK_ReadReg(FPS30)  returns 0x00000000 (0000ms, 4770ms total)
T47A8 229:570 JLINK_ReadReg(FPS31)  returns 0x00000000 (0000ms, 4770ms total)
T4C9C 229:685 JLINK_ReadMemEx(0x080001C0, 0x0002 Bytes, ..., Flags = 0x02000000) -- Read from C cache (2 bytes @ 0x080001C0) - Data: 06 48  returns 0x02 (0000ms, 4770ms total)
T4C9C 229:685 JLINK_SetBPEx(Addr = 0x0800E578, Type = 0xFFFFFFF2)  returns 0x00000001 (0000ms, 4770ms total)
T4C9C 229:685 JLINK_SetBPEx(Addr = 0x08000664, Type = 0xFFFFFFF2)  returns 0x00000002 (0000ms, 4770ms total)
T4C9C 229:685 JLINK_SetBPEx(Addr = 0x0800E598, Type = 0xFFFFFFF2)  returns 0x00000003 (0000ms, 4770ms total)
T4C9C 229:685 JLINK_SetBPEx(Addr = 0x080060BA, Type = 0xFFFFFFF2)  returns 0x00000004 (0000ms, 4770ms total)
T4C9C 229:685 JLINK_Go() -- CPU_WriteMem(4 bytes @ 0xE0002000) -- CPU_WriteMem(4 bytes @ 0xE0002000) -- CPU_WriteMem(4 bytes @ 0xE0002000) -- CPU_WriteMem(4 bytes @ 0xE0002000) -- CPU_ReadMem(4 bytes @ 0xE0001000) -- CPU_WriteMem(4 bytes @ 0xE0002008) -- CPU_WriteMem(4 bytes @ 0xE000200C) -- CPU_WriteMem(4 bytes @ 0xE0002010) -- CPU_WriteMem(4 bytes @ 0xE0002014) -- CPU_WriteMem(4 bytes @ 0xE0002018) -- CPU_WriteMem(4 bytes @ 0xE000201C) -- CPU_WriteMem(4 bytes @ 0xE0001004) (0006ms, 4776ms total)
T4C9C 229:792 JLINK_IsHalted()  returns TRUE (0003ms, 4779ms total)
T4C9C 229:795 JLINK_Halt()  returns 0x00 (0000ms, 4776ms total)
T4C9C 229:795 JLINK_IsHalted()  returns TRUE (0000ms, 4776ms total)
T4C9C 229:795 JLINK_IsHalted()  returns TRUE (0000ms, 4776ms total)
T4C9C 229:795 JLINK_IsHalted()  returns TRUE (0000ms, 4776ms total)
T4C9C 229:795 JLINK_ReadReg(R15 (PC))  returns 0x0800E578 (0000ms, 4776ms total)
T4C9C 229:795 JLINK_ReadReg(XPSR)  returns 0x61000000 (0000ms, 4776ms total)
T4C9C 229:795 JLINK_ClrBPEx(BPHandle = 0x00000001)  returns 0x00 (0000ms, 4776ms total)
T4C9C 229:795 JLINK_ClrBPEx(BPHandle = 0x00000002)  returns 0x00 (0000ms, 4776ms total)
T4C9C 229:795 JLINK_ClrBPEx(BPHandle = 0x00000003)  returns 0x00 (0000ms, 4776ms total)
T4C9C 229:795 JLINK_ClrBPEx(BPHandle = 0x00000004)  returns 0x00 (0000ms, 4776ms total)
T4C9C 229:795 JLINK_ReadMemU32(0xE000ED30, 0x0001 Items, ...) -- CPU_ReadMem(4 bytes @ 0xE000ED30) - Data: 02 00 00 00  returns 0x01 (0001ms, 4777ms total)
T4C9C 229:796 JLINK_ReadMemU32(0xE0001028, 0x0001 Items, ...) -- CPU_ReadMem(4 bytes @ 0xE0001028) - Data: 00 00 00 00  returns 0x01 (0001ms, 4778ms total)
T4C9C 229:797 JLINK_ReadMemU32(0xE0001038, 0x0001 Items, ...) -- CPU_ReadMem(4 bytes @ 0xE0001038) - Data: 00 02 00 00  returns 0x01 (0001ms, 4779ms total)
T4C9C 229:798 JLINK_ReadMemU32(0xE0001048, 0x0001 Items, ...) -- CPU_ReadMem(4 bytes @ 0xE0001048) - Data: 00 00 00 00  returns 0x01 (0000ms, 4779ms total)
T4C9C 229:798 JLINK_ReadMemU32(0xE0001058, 0x0001 Items, ...) -- CPU_ReadMem(4 bytes @ 0xE0001058) - Data: 00 00 00 00  returns 0x01 (0001ms, 4780ms total)
T4C9C 229:799 JLINK_ReadReg(R0)  returns 0x0800E579 (0000ms, 4780ms total)
T4C9C 229:799 JLINK_ReadReg(R1)  returns 0x2001C278 (0000ms, 4780ms total)
T4C9C 229:799 JLINK_ReadReg(R2)  returns 0x00000000 (0000ms, 4780ms total)
T4C9C 229:799 JLINK_ReadReg(R3)  returns 0x0800E131 (0000ms, 4780ms total)
T4C9C 229:799 JLINK_ReadReg(R4)  returns 0x08012EC4 (0000ms, 4780ms total)
T4C9C 229:799 JLINK_ReadReg(R5)  returns 0x08012EC4 (0000ms, 4780ms total)
T4C9C 229:799 JLINK_ReadReg(R6)  returns 0x00000000 (0000ms, 4780ms total)
T4C9C 229:799 JLINK_ReadReg(R7)  returns 0x00000000 (0000ms, 4780ms total)
T4C9C 229:799 JLINK_ReadReg(R8)  returns 0x00000000 (0000ms, 4780ms total)
T4C9C 229:799 JLINK_ReadReg(R9)  returns 0x00000000 (0000ms, 4780ms total)
T4C9C 229:799 JLINK_ReadReg(R10)  returns 0x00000000 (0000ms, 4780ms total)
T4C9C 229:799 JLINK_ReadReg(R11)  returns 0x00000000 (0000ms, 4780ms total)
T4C9C 229:799 JLINK_ReadReg(R12)  returns 0x00000000 (0000ms, 4780ms total)
T4C9C 229:799 JLINK_ReadReg(R13 (SP))  returns 0x2001C278 (0000ms, 4780ms total)
T4C9C 229:799 JLINK_ReadReg(R14)  returns 0x08000309 (0000ms, 4780ms total)
T4C9C 229:799 JLINK_ReadReg(R15 (PC))  returns 0x0800E578 (0000ms, 4780ms total)
T4C9C 229:799 JLINK_ReadReg(XPSR)  returns 0x61000000 (0000ms, 4780ms total)
T4C9C 229:799 JLINK_ReadReg(MSP)  returns 0x2001C278 (0000ms, 4780ms total)
T4C9C 229:799 JLINK_ReadReg(PSP)  returns 0x00000000 (0000ms, 4780ms total)
T4C9C 229:799 JLINK_ReadReg(CFBP)  returns 0x00000000 (0000ms, 4780ms total)
T4C9C 229:799 JLINK_ReadReg(FPSCR)  returns 0x00000000 (0006ms, 4786ms total)
T4C9C 229:805 JLINK_ReadReg(FPS0)  returns 0x00000000 (0000ms, 4786ms total)
T4C9C 229:805 JLINK_ReadReg(FPS1)  returns 0x00000000 (0000ms, 4786ms total)
T4C9C 229:805 JLINK_ReadReg(FPS2)  returns 0x00000000 (0000ms, 4786ms total)
T4C9C 229:805 JLINK_ReadReg(FPS3)  returns 0x00000000 (0000ms, 4786ms total)
T4C9C 229:805 JLINK_ReadReg(FPS4)  returns 0x00000000 (0000ms, 4786ms total)
T4C9C 229:805 JLINK_ReadReg(FPS5)  returns 0x00000000 (0000ms, 4786ms total)
T4C9C 229:805 JLINK_ReadReg(FPS6)  returns 0x00000000 (0000ms, 4786ms total)
T4C9C 229:805 JLINK_ReadReg(FPS7)  returns 0x00000000 (0000ms, 4786ms total)
T4C9C 229:805 JLINK_ReadReg(FPS8)  returns 0x00000000 (0000ms, 4786ms total)
T4C9C 229:805 JLINK_ReadReg(FPS9)  returns 0x00000000 (0000ms, 4786ms total)
T4C9C 229:805 JLINK_ReadReg(FPS10)  returns 0x00000000 (0000ms, 4786ms total)
T4C9C 229:805 JLINK_ReadReg(FPS11)  returns 0x00000000 (0000ms, 4786ms total)
T4C9C 229:805 JLINK_ReadReg(FPS12)  returns 0x00000000 (0000ms, 4786ms total)
T4C9C 229:805 JLINK_ReadReg(FPS13)  returns 0x00000000 (0000ms, 4786ms total)
T4C9C 229:805 JLINK_ReadReg(FPS14)  returns 0x00000000 (0000ms, 4786ms total)
T4C9C 229:805 JLINK_ReadReg(FPS15)  returns 0x00000000 (0000ms, 4786ms total)
T4C9C 229:805 JLINK_ReadReg(FPS16)  returns 0x00000000 (0000ms, 4786ms total)
T4C9C 229:805 JLINK_ReadReg(FPS17)  returns 0x00000000 (0000ms, 4786ms total)
T4C9C 229:805 JLINK_ReadReg(FPS18)  returns 0x00000000 (0000ms, 4786ms total)
T4C9C 229:805 JLINK_ReadReg(FPS19)  returns 0x00000000 (0000ms, 4786ms total)
T4C9C 229:805 JLINK_ReadReg(FPS20)  returns 0x00000000 (0000ms, 4786ms total)
T4C9C 229:805 JLINK_ReadReg(FPS21)  returns 0x00000000 (0000ms, 4786ms total)
T4C9C 229:805 JLINK_ReadReg(FPS22)  returns 0x00000000 (0000ms, 4786ms total)
T4C9C 229:805 JLINK_ReadReg(FPS23)  returns 0x00000000 (0000ms, 4786ms total)
T4C9C 229:805 JLINK_ReadReg(FPS24)  returns 0x00000000 (0000ms, 4786ms total)
T4C9C 229:805 JLINK_ReadReg(FPS25)  returns 0x00000000 (0000ms, 4786ms total)
T4C9C 229:805 JLINK_ReadReg(FPS26)  returns 0x00000000 (0000ms, 4786ms total)
T4C9C 229:805 JLINK_ReadReg(FPS27)  returns 0x00000000 (0000ms, 4786ms total)
T4C9C 229:805 JLINK_ReadReg(FPS28)  returns 0x00000000 (0000ms, 4786ms total)
T4C9C 229:805 JLINK_ReadReg(FPS29)  returns 0x00000000 (0000ms, 4786ms total)
T4C9C 229:805 JLINK_ReadReg(FPS30)  returns 0x00000000 (0000ms, 4786ms total)
T4C9C 229:805 JLINK_ReadReg(FPS31)  returns 0x00000000 (0000ms, 4786ms total)
T47A8 229:810 JLINK_ReadMemEx(0x40005C00, 0x0024 Bytes, ..., Flags = 0x02000004) -- CPU_ReadMem(36 bytes @ 0x40005C00) - Data: 00 00 00 00 00 00 00 00 00 00 00 00 00 00 00 00 ...  returns 0x24 (0001ms, 4787ms total)
T47A8 229:811 JLINK_ReadMemEx(0x40005C00, 0x0004 Bytes, ..., Flags = 0x02000004) -- CPU_ReadMem(4 bytes @ 0x40005C00) - Data: 00 00 00 00  returns 0x04 (0001ms, 4788ms total)
T47A8 229:812 JLINK_ReadMemEx(0x40005C04, 0x0004 Bytes, ..., Flags = 0x02000004) -- CPU_ReadMem(4 bytes @ 0x40005C04) - Data: 00 00 00 00  returns 0x04 (0001ms, 4789ms total)
T47A8 229:813 JLINK_ReadMemEx(0x40005C08, 0x0004 Bytes, ..., Flags = 0x02000004) -- CPU_ReadMem(4 bytes @ 0x40005C08) - Data: 00 00 00 00  returns 0x04 (0000ms, 4789ms total)
T47A8 229:813 JLINK_ReadMemEx(0x40005C0C, 0x0004 Bytes, ..., Flags = 0x02000004) -- CPU_ReadMem(4 bytes @ 0x40005C0C) - Data: 00 00 00 00  returns 0x04 (0001ms, 4790ms total)
T47A8 229:814 JLINK_ReadMemEx(0x40005C10, 0x0004 Bytes, ..., Flags = 0x02000004) -- CPU_ReadMem(4 bytes @ 0x40005C10) - Data: 00 00 00 00  returns 0x04 (0001ms, 4791ms total)
T47A8 229:815 JLINK_ReadMemEx(0x40005C14, 0x0004 Bytes, ..., Flags = 0x02000004) -- CPU_ReadMem(4 bytes @ 0x40005C14) - Data: 00 00 00 00  returns 0x04 (0000ms, 4791ms total)
T47A8 229:815 JLINK_ReadMemEx(0x40005C18, 0x0004 Bytes, ..., Flags = 0x02000004) -- CPU_ReadMem(4 bytes @ 0x40005C18) - Data: 00 00 00 00  returns 0x04 (0001ms, 4792ms total)
T47A8 229:816 JLINK_ReadMemEx(0x40005C1C, 0x0004 Bytes, ..., Flags = 0x02000004) -- CPU_ReadMem(4 bytes @ 0x40005C1C) - Data: 00 00 00 00  returns 0x04 (0001ms, 4793ms total)
T47A8 229:817 JLINK_ReadMemEx(0x40005C20, 0x0004 Bytes, ..., Flags = 0x02000004) -- CPU_ReadMem(4 bytes @ 0x40005C20) - Data: 00 00 00 00  returns 0x04 (0000ms, 4793ms total)
T47A8 229:817 JLINK_ReadMemEx(0x40005C24, 0x0004 Bytes, ..., Flags = 0x02000004) -- CPU_ReadMem(4 bytes @ 0x40005C24) - Data: 00 00 00 00  returns 0x04 (0001ms, 4794ms total)
T47A8 229:818 JLINK_ReadMemEx(0x40005C24, 0x0004 Bytes, ..., Flags = 0x02000004) -- CPU_ReadMem(4 bytes @ 0x40005C24) - Data: 00 00 00 00  returns 0x04 (0001ms, 4795ms total)
T4C9C 260:014 JLINK_ReadMemEx(0x0800E578, 0x0002 Bytes, ..., Flags = 0x02000000) -- CPU_ReadMem(64 bytes @ 0x0800E540) -- Updating C cache (64 bytes @ 0x0800E540) -- Read from C cache (2 bytes @ 0x0800E578) - Data: F5 F7  returns 0x02 (0001ms, 4796ms total)
T4C9C 260:015 JLINK_SetBPEx(Addr = 0x08000664, Type = 0xFFFFFFF2)  returns 0x00000005 (0000ms, 4796ms total)
T4C9C 260:015 JLINK_SetBPEx(Addr = 0x08000670, Type = 0xFFFFFFF2)  returns 0x00000006 (0001ms, 4797ms total)
T4C9C 260:016 JLINK_Go() -- CPU_WriteMem(4 bytes @ 0xE0002000) -- CPU_WriteMem(4 bytes @ 0xE0002000) -- CPU_ReadMem(4 bytes @ 0xE0001000) -- CPU_WriteMem(4 bytes @ 0xE0002008) -- CPU_WriteMem(4 bytes @ 0xE000200C) -- CPU_WriteMem(4 bytes @ 0xE0002010) -- CPU_WriteMem(4 bytes @ 0xE0002014) (0005ms, 4802ms total)
T4C9C 260:122 JLINK_IsHalted()  returns FALSE (0001ms, 4803ms total)
T4C9C 260:223 JLINK_IsHalted()  returns FALSE (0001ms, 4803ms total)
T4C9C 260:325 JLINK_IsHalted()  returns FALSE (0001ms, 4803ms total)
T4C9C 260:427 JLINK_IsHalted()  returns TRUE (0004ms, 4806ms total)
T4C9C 260:431 JLINK_Halt()  returns 0x00 (0000ms, 4802ms total)
T4C9C 260:431 JLINK_IsHalted()  returns TRUE (0000ms, 4802ms total)
T4C9C 260:431 JLINK_IsHalted()  returns TRUE (0000ms, 4802ms total)
T4C9C 260:431 JLINK_IsHalted()  returns TRUE (0000ms, 4802ms total)
T4C9C 260:431 JLINK_ReadReg(R15 (PC))  returns 0x08000664 (0000ms, 4802ms total)
T4C9C 260:431 JLINK_ReadReg(XPSR)  returns 0x81000000 (0000ms, 4802ms total)
T4C9C 260:431 JLINK_ClrBPEx(BPHandle = 0x00000005)  returns 0x00 (0000ms, 4802ms total)
T4C9C 260:431 JLINK_ClrBPEx(BPHandle = 0x00000006)  returns 0x00 (0001ms, 4803ms total)
T4C9C 260:432 JLINK_ReadMemU32(0xE000ED30, 0x0001 Items, ...) -- CPU_ReadMem(4 bytes @ 0xE000ED30) - Data: 02 00 00 00  returns 0x01 (0001ms, 4804ms total)
T4C9C 260:433 JLINK_ReadMemU32(0xE0001028, 0x0001 Items, ...) -- CPU_ReadMem(4 bytes @ 0xE0001028) - Data: 00 00 00 00  returns 0x01 (0001ms, 4805ms total)
T4C9C 260:434 JLINK_ReadMemU32(0xE0001038, 0x0001 Items, ...) -- CPU_ReadMem(4 bytes @ 0xE0001038) - Data: 00 02 00 00  returns 0x01 (0001ms, 4806ms total)
T4C9C 260:435 JLINK_ReadMemU32(0xE0001048, 0x0001 Items, ...) -- CPU_ReadMem(4 bytes @ 0xE0001048) - Data: 00 00 00 00  returns 0x01 (0001ms, 4807ms total)
T4C9C 260:436 JLINK_ReadMemU32(0xE0001058, 0x0001 Items, ...) -- CPU_ReadMem(4 bytes @ 0xE0001058) - Data: 00 00 00 00  returns 0x01 (0001ms, 4808ms total)
T4C9C 260:438 JLINK_ReadReg(R0)  returns 0x2001BD50 (0000ms, 4808ms total)
T4C9C 260:438 JLINK_ReadReg(R1)  returns 0x00000000 (0000ms, 4808ms total)
T4C9C 260:438 JLINK_ReadReg(R2)  returns 0x00000000 (0000ms, 4808ms total)
T4C9C 260:438 JLINK_ReadReg(R3)  returns 0x00000001 (0000ms, 4808ms total)
T4C9C 260:438 JLINK_ReadReg(R4)  returns 0x0000012C (0000ms, 4808ms total)
T4C9C 260:438 JLINK_ReadReg(R5)  returns 0x08012EC4 (0000ms, 4808ms total)
T4C9C 260:438 JLINK_ReadReg(R6)  returns 0x00000000 (0000ms, 4808ms total)
T4C9C 260:438 JLINK_ReadReg(R7)  returns 0x00000000 (0000ms, 4808ms total)
T4C9C 260:438 JLINK_ReadReg(R8)  returns 0x00000000 (0000ms, 4808ms total)
T4C9C 260:438 JLINK_ReadReg(R9)  returns 0x00000000 (0000ms, 4808ms total)
T4C9C 260:438 JLINK_ReadReg(R10)  returns 0x00000000 (0000ms, 4808ms total)
T4C9C 260:438 JLINK_ReadReg(R11)  returns 0x00000000 (0000ms, 4808ms total)
T4C9C 260:438 JLINK_ReadReg(R12)  returns 0x00000000 (0000ms, 4808ms total)
T4C9C 260:438 JLINK_ReadReg(R13 (SP))  returns 0x2001C278 (0000ms, 4808ms total)
T4C9C 260:438 JLINK_ReadReg(R14)  returns 0x080027D9 (0000ms, 4808ms total)
T4C9C 260:438 JLINK_ReadReg(R15 (PC))  returns 0x08000664 (0000ms, 4808ms total)
T4C9C 260:438 JLINK_ReadReg(XPSR)  returns 0x81000000 (0000ms, 4808ms total)
T4C9C 260:438 JLINK_ReadReg(MSP)  returns 0x2001C278 (0000ms, 4808ms total)
T4C9C 260:439 JLINK_ReadReg(PSP)  returns 0x00000000 (0000ms, 4809ms total)
T4C9C 260:439 JLINK_ReadReg(CFBP)  returns 0x00000000 (0000ms, 4809ms total)
T4C9C 260:439 JLINK_ReadReg(FPSCR)  returns 0x00000000 (0005ms, 4814ms total)
T4C9C 260:444 JLINK_ReadReg(FPS0)  returns 0x00000000 (0000ms, 4814ms total)
T4C9C 260:444 JLINK_ReadReg(FPS1)  returns 0x00000000 (0000ms, 4814ms total)
T4C9C 260:444 JLINK_ReadReg(FPS2)  returns 0x00000000 (0000ms, 4814ms total)
T4C9C 260:444 JLINK_ReadReg(FPS3)  returns 0x00000000 (0000ms, 4814ms total)
T4C9C 260:444 JLINK_ReadReg(FPS4)  returns 0x00000000 (0000ms, 4814ms total)
T4C9C 260:444 JLINK_ReadReg(FPS5)  returns 0x00000000 (0000ms, 4814ms total)
T4C9C 260:444 JLINK_ReadReg(FPS6)  returns 0x00000000 (0000ms, 4814ms total)
T4C9C 260:444 JLINK_ReadReg(FPS7)  returns 0x00000000 (0000ms, 4814ms total)
T4C9C 260:444 JLINK_ReadReg(FPS8)  returns 0x00000000 (0000ms, 4814ms total)
T4C9C 260:444 JLINK_ReadReg(FPS9)  returns 0x00000000 (0001ms, 4815ms total)
T4C9C 260:445 JLINK_ReadReg(FPS10)  returns 0x00000000 (0000ms, 4815ms total)
T4C9C 260:445 JLINK_ReadReg(FPS11)  returns 0x00000000 (0000ms, 4815ms total)
T4C9C 260:445 JLINK_ReadReg(FPS12)  returns 0x00000000 (0000ms, 4815ms total)
T4C9C 260:445 JLINK_ReadReg(FPS13)  returns 0x00000000 (0000ms, 4815ms total)
T4C9C 260:445 JLINK_ReadReg(FPS14)  returns 0x00000000 (0000ms, 4815ms total)
T4C9C 260:445 JLINK_ReadReg(FPS15)  returns 0x00000000 (0000ms, 4815ms total)
T4C9C 260:445 JLINK_ReadReg(FPS16)  returns 0x00000000 (0000ms, 4815ms total)
T4C9C 260:445 JLINK_ReadReg(FPS17)  returns 0x00000000 (0000ms, 4815ms total)
T4C9C 260:445 JLINK_ReadReg(FPS18)  returns 0x00000000 (0000ms, 4815ms total)
T4C9C 260:445 JLINK_ReadReg(FPS19)  returns 0x00000000 (0000ms, 4815ms total)
T4C9C 260:445 JLINK_ReadReg(FPS20)  returns 0x00000000 (0000ms, 4815ms total)
T4C9C 260:445 JLINK_ReadReg(FPS21)  returns 0x00000000 (0000ms, 4815ms total)
T4C9C 260:445 JLINK_ReadReg(FPS22)  returns 0x00000000 (0000ms, 4815ms total)
T4C9C 260:445 JLINK_ReadReg(FPS23)  returns 0x00000000 (0000ms, 4815ms total)
T4C9C 260:445 JLINK_ReadReg(FPS24)  returns 0x00000000 (0000ms, 4815ms total)
T4C9C 260:445 JLINK_ReadReg(FPS25)  returns 0x00000000 (0000ms, 4815ms total)
T4C9C 260:445 JLINK_ReadReg(FPS26)  returns 0x00000000 (0000ms, 4815ms total)
T4C9C 260:445 JLINK_ReadReg(FPS27)  returns 0x00000000 (0000ms, 4815ms total)
T4C9C 260:445 JLINK_ReadReg(FPS28)  returns 0x00000000 (0000ms, 4815ms total)
T4C9C 260:445 JLINK_ReadReg(FPS29)  returns 0x00000000 (0000ms, 4815ms total)
T4C9C 260:446 JLINK_ReadReg(FPS30)  returns 0x00000000 (0000ms, 4816ms total)
T4C9C 260:446 JLINK_ReadReg(FPS31)  returns 0x00000000 (0000ms, 4816ms total)
T47A8 260:463 JLINK_ReadMemEx(0x40005C00, 0x0024 Bytes, ..., Flags = 0x02000004) -- CPU_ReadMem(36 bytes @ 0x40005C00) - Data: 01 00 00 00 2A 00 00 00 3E 40 00 00 00 00 00 00 ...  returns 0x24 (0001ms, 4817ms total)
T47A8 260:464 JLINK_ReadMemEx(0x40005C00, 0x0004 Bytes, ..., Flags = 0x02000004) -- CPU_ReadMem(4 bytes @ 0x40005C00) - Data: 01 00 00 00  returns 0x04 (0001ms, 4818ms total)
T47A8 260:465 JLINK_ReadMemEx(0x40005C04, 0x0004 Bytes, ..., Flags = 0x02000004) -- CPU_ReadMem(4 bytes @ 0x40005C04) - Data: 2A 00 00 00  returns 0x04 (0001ms, 4819ms total)
T47A8 260:466 JLINK_ReadMemEx(0x40005C08, 0x0004 Bytes, ..., Flags = 0x02000004) -- CPU_ReadMem(4 bytes @ 0x40005C08) - Data: 3E 40 00 00  returns 0x04 (0002ms, 4821ms total)
T47A8 260:468 JLINK_ReadMemEx(0x40005C0C, 0x0004 Bytes, ..., Flags = 0x02000004) -- CPU_ReadMem(4 bytes @ 0x40005C0C) - Data: 00 00 00 00  returns 0x04 (0001ms, 4822ms total)
T47A8 260:469 JLINK_ReadMemEx(0x40005C10, 0x0004 Bytes, ..., Flags = 0x02000004) -- CPU_ReadMem(4 bytes @ 0x40005C10) - Data: 00 00 00 00  returns 0x04 (0001ms, 4823ms total)
T47A8 260:470 JLINK_ReadMemEx(0x40005C14, 0x0004 Bytes, ..., Flags = 0x02000004) -- CPU_ReadMem(4 bytes @ 0x40005C14) - Data: 00 00 00 00  returns 0x04 (0001ms, 4824ms total)
T47A8 260:471 JLINK_ReadMemEx(0x40005C18, 0x0004 Bytes, ..., Flags = 0x02000004) -- CPU_ReadMem(4 bytes @ 0x40005C18) - Data: 00 00 00 00  returns 0x04 (0001ms, 4825ms total)
T47A8 260:472 JLINK_ReadMemEx(0x40005C1C, 0x0004 Bytes, ..., Flags = 0x02000004) -- CPU_ReadMem(4 bytes @ 0x40005C1C) - Data: 04 C0 00 00  returns 0x04 (0001ms, 4826ms total)
T47A8 260:474 JLINK_ReadMemEx(0x40005C20, 0x0004 Bytes, ..., Flags = 0x02000004) -- CPU_ReadMem(4 bytes @ 0x40005C20) - Data: 0D 00 00 00  returns 0x04 (0001ms, 4828ms total)
T47A8 260:475 JLINK_ReadMemEx(0x40005C24, 0x0004 Bytes, ..., Flags = 0x02000004) -- CPU_ReadMem(4 bytes @ 0x40005C24) - Data: 00 00 00 00  returns 0x04 (0001ms, 4829ms total)
T47A8 260:476 JLINK_ReadMemEx(0x40005C24, 0x0004 Bytes, ..., Flags = 0x02000004) -- CPU_ReadMem(4 bytes @ 0x40005C24) - Data: 00 00 00 00  returns 0x04 (0001ms, 4830ms total)
T47A8 260:519 JLINK_ReadMemEx(0x08000664, 0x003C Bytes, ..., Flags = 0x02000000) -- CPU_ReadMem(128 bytes @ 0x08000640) -- Updating C cache (128 bytes @ 0x08000640) -- Read from C cache (60 bytes @ 0x08000664) - Data: 05 F0 B2 FD A0 F5 00 61 11 39 00 D0 FE E7 64 20 ...  returns 0x3C (0002ms, 4832ms total)
T4C9C 262:072 JLINK_ReadMemEx(0x08000664, 0x0002 Bytes, ..., Flags = 0x02000000) -- Read from C cache (2 bytes @ 0x08000664) - Data: 05 F0  returns 0x02 (0000ms, 4832ms total)
T4C9C 262:072 JLINK_Step() -- Read from C cache (2 bytes @ 0x08000664) -- CPU_ReadMem(4 bytes @ 0xE000ED18) -- CPU_WriteMem(4 bytes @ 0xE000ED18) -- CPU_ReadMem(4 bytes @ 0xE000ED18) -- CPU_WriteMem(4 bytes @ 0xE000ED18) -- CPU_ReadMem(4 bytes @ 0xE0001004) -- Read from C cache (2 bytes @ 0x08000666) -- Simulated  returns 0x00 (0006ms, 4838ms total)
T4C9C 262:078 JLINK_ReadReg(R15 (PC))  returns 0x080061CC (0000ms, 4838ms total)
T4C9C 262:078 JLINK_ReadReg(XPSR)  returns 0x81000000 (0000ms, 4838ms total)
T4C9C 262:078 JLINK_SetBPEx(Addr = 0x08000664, Type = 0xFFFFFFF2)  returns 0x00000007 (0000ms, 4838ms total)
T4C9C 262:078 JLINK_SetBPEx(Addr = 0x08000670, Type = 0xFFFFFFF2)  returns 0x00000008 (0000ms, 4838ms total)
T4C9C 262:078 JLINK_Go() -- CPU_WriteMem(4 bytes @ 0xE0002000) -- CPU_WriteMem(4 bytes @ 0xE0002000) -- CPU_ReadMem(4 bytes @ 0xE0001000) -- CPU_WriteMem(4 bytes @ 0xE0001004) (0006ms, 4844ms total)
T4C9C 262:185 JLINK_IsHalted()  returns FALSE (0001ms, 4845ms total)
T4C9C 262:286 JLINK_IsHalted()  returns FALSE (0001ms, 4845ms total)
T4C9C 262:388 JLINK_IsHalted()  returns FALSE (0001ms, 4845ms total)
T4C9C 262:490 JLINK_IsHalted()  returns FALSE (0001ms, 4845ms total)
T4C9C 262:591 JLINK_IsHalted()  returns FALSE (0001ms, 4845ms total)
T4C9C 262:693 JLINK_ReadMemU32(0xE0001004, 0x0001 Items, ...) -- CPU_ReadMem(4 bytes @ 0xE0001004) - Data: 0D 4D 30 0A  returns 0x01 (0001ms, 4845ms total)
T47A8 262:694 JLINK_ReadMemEx(0x40005C00, 0x0024 Bytes, ..., Flags = 0x02000004) -- CPU_ReadMem(36 bytes @ 0x40005C00) - Data: 01 00 00 00 2A 00 00 00 3E 40 00 00 00 00 00 00 ...  returns 0x24 (0002ms, 4847ms total)
T47A8 262:696 JLINK_ReadMemEx(0x40005C00, 0x0004 Bytes, ..., Flags = 0x02000004) -- CPU_ReadMem(4 bytes @ 0x40005C00) - Data: 01 00 00 00  returns 0x04 (0001ms, 4848ms total)
T47A8 262:697 JLINK_ReadMemEx(0x40005C04, 0x0004 Bytes, ..., Flags = 0x02000004) -- CPU_ReadMem(4 bytes @ 0x40005C04) - Data: 2A 00 00 00  returns 0x04 (0001ms, 4849ms total)
T47A8 262:698 JLINK_ReadMemEx(0x40005C08, 0x0004 Bytes, ..., Flags = 0x02000004) -- CPU_ReadMem(4 bytes @ 0x40005C08) - Data: 3E 40 00 00  returns 0x04 (0001ms, 4850ms total)
T47A8 262:699 JLINK_ReadMemEx(0x40005C0C, 0x0004 Bytes, ..., Flags = 0x02000004) -- CPU_ReadMem(4 bytes @ 0x40005C0C) - Data: 00 00 00 00  returns 0x04 (0001ms, 4851ms total)
T47A8 262:700 JLINK_ReadMemEx(0x40005C10, 0x0004 Bytes, ..., Flags = 0x02000004) -- CPU_ReadMem(4 bytes @ 0x40005C10) - Data: 11 00 00 00  returns 0x04 (0001ms, 4852ms total)
T47A8 262:701 JLINK_ReadMemEx(0x40005C14, 0x0004 Bytes, ..., Flags = 0x02000004) -- CPU_ReadMem(4 bytes @ 0x40005C14) - Data: 00 00 00 00  returns 0x04 (0002ms, 4854ms total)
T47A8 262:703 JLINK_ReadMemEx(0x40005C18, 0x0004 Bytes, ..., Flags = 0x02000004) -- CPU_ReadMem(4 bytes @ 0x40005C18) - Data: 00 00 00 00  returns 0x04 (0001ms, 4855ms total)
T47A8 262:704 JLINK_ReadMemEx(0x40005C1C, 0x0004 Bytes, ..., Flags = 0x02000004) -- CPU_ReadMem(4 bytes @ 0x40005C1C) - Data: 04 C0 00 00  returns 0x04 (0001ms, 4856ms total)
T47A8 262:705 JLINK_ReadMemEx(0x40005C20, 0x0004 Bytes, ..., Flags = 0x02000004) -- CPU_ReadMem(4 bytes @ 0x40005C20) - Data: 0D 00 00 00  returns 0x04 (0001ms, 4857ms total)
T47A8 262:706 JLINK_ReadMemEx(0x40005C24, 0x0004 Bytes, ..., Flags = 0x02000004) -- CPU_ReadMem(4 bytes @ 0x40005C24) - Data: 00 00 00 00  returns 0x04 (0001ms, 4858ms total)
T47A8 262:707 JLINK_ReadMemEx(0x40005C24, 0x0004 Bytes, ..., Flags = 0x02000004) -- CPU_ReadMem(4 bytes @ 0x40005C24) - Data: 00 00 00 00  returns 0x04 (0002ms, 4860ms total)
T4C9C 262:718 JLINK_IsHalted()  returns FALSE (0001ms, 4861ms total)
T4C9C 262:820 JLINK_IsHalted()  returns FALSE (0001ms, 4861ms total)
T4C9C 262:922 JLINK_IsHalted()  returns FALSE (0001ms, 4861ms total)
T4C9C 263:024 JLINK_IsHalted()  returns FALSE (0001ms, 4861ms total)
T4C9C 263:125 JLINK_IsHalted()  returns FALSE (0001ms, 4861ms total)
T4C9C 263:227 JLINK_ReadMemU32(0xE0001004, 0x0001 Items, ...) - Data: 0D 4D 30 0A  returns 0x01 (0000ms, 4860ms total)
T47A8 263:227 JLINK_ReadMemEx(0x40005C00, 0x0024 Bytes, ..., Flags = 0x02000004) -- CPU_ReadMem(36 bytes @ 0x40005C00) - Data: 01 00 00 00 2A 00 00 00 3E 40 00 00 00 00 00 00 ...  returns 0x24 (0001ms, 4861ms total)
T47A8 263:228 JLINK_ReadMemEx(0x40005C00, 0x0004 Bytes, ..., Flags = 0x02000004) -- CPU_ReadMem(4 bytes @ 0x40005C00) - Data: 01 00 00 00  returns 0x04 (0001ms, 4862ms total)
T47A8 263:229 JLINK_ReadMemEx(0x40005C04, 0x0004 Bytes, ..., Flags = 0x02000004) -- CPU_ReadMem(4 bytes @ 0x40005C04) - Data: 2A 00 00 00  returns 0x04 (0001ms, 4863ms total)
T47A8 263:230 JLINK_ReadMemEx(0x40005C08, 0x0004 Bytes, ..., Flags = 0x02000004) -- CPU_ReadMem(4 bytes @ 0x40005C08) - Data: 3E 40 00 00  returns 0x04 (0002ms, 4865ms total)
T47A8 263:232 JLINK_ReadMemEx(0x40005C0C, 0x0004 Bytes, ..., Flags = 0x02000004) -- CPU_ReadMem(4 bytes @ 0x40005C0C) - Data: 00 00 00 00  returns 0x04 (0001ms, 4866ms total)
T47A8 263:233 JLINK_ReadMemEx(0x40005C10, 0x0004 Bytes, ..., Flags = 0x02000004) -- CPU_ReadMem(4 bytes @ 0x40005C10) - Data: 11 00 00 00  returns 0x04 (0001ms, 4867ms total)
T47A8 263:234 JLINK_ReadMemEx(0x40005C14, 0x0004 Bytes, ..., Flags = 0x02000004) -- CPU_ReadMem(4 bytes @ 0x40005C14) - Data: 00 00 00 00  returns 0x04 (0001ms, 4868ms total)
T47A8 263:235 JLINK_ReadMemEx(0x40005C18, 0x0004 Bytes, ..., Flags = 0x02000004) -- CPU_ReadMem(4 bytes @ 0x40005C18) - Data: 00 00 00 00  returns 0x04 (0001ms, 4869ms total)
T47A8 263:236 JLINK_ReadMemEx(0x40005C1C, 0x0004 Bytes, ..., Flags = 0x02000004) -- CPU_ReadMem(4 bytes @ 0x40005C1C) - Data: 04 C0 00 00  returns 0x04 (0002ms, 4871ms total)
T47A8 263:238 JLINK_ReadMemEx(0x40005C20, 0x0004 Bytes, ..., Flags = 0x02000004) -- CPU_ReadMem(4 bytes @ 0x40005C20) - Data: 0D 00 00 00  returns 0x04 (0001ms, 4872ms total)
T47A8 263:239 JLINK_ReadMemEx(0x40005C24, 0x0004 Bytes, ..., Flags = 0x02000004) -- CPU_ReadMem(4 bytes @ 0x40005C24) - Data: 00 00 00 00  returns 0x04 (0001ms, 4873ms total)
T47A8 263:240 JLINK_ReadMemEx(0x40005C24, 0x0004 Bytes, ..., Flags = 0x02000004) -- CPU_ReadMem(4 bytes @ 0x40005C24) - Data: 00 00 00 00  returns 0x04 (0001ms, 4874ms total)
T4C9C 263:242 JLINK_IsHalted()  returns FALSE (0001ms, 4875ms total)
T4C9C 263:344 JLINK_IsHalted()  returns FALSE (0001ms, 4875ms total)
T4C9C 263:446 JLINK_IsHalted()  returns FALSE (0001ms, 4875ms total)
T4C9C 263:548 JLINK_IsHalted()  returns FALSE (0001ms, 4875ms total)
T4C9C 263:649 JLINK_IsHalted()  returns FALSE (0001ms, 4875ms total)
T4C9C 263:751 JLINK_ReadMemU32(0xE0001004, 0x0001 Items, ...) - Data: 0D 4D 30 0A  returns 0x01 (0000ms, 4874ms total)
T47A8 263:751 JLINK_ReadMemEx(0x40005C00, 0x0024 Bytes, ..., Flags = 0x02000004) -- CPU_ReadMem(36 bytes @ 0x40005C00) - Data: 01 00 00 00 2A 00 00 00 3E 40 00 00 00 00 00 00 ...  returns 0x24 (0001ms, 4875ms total)
T47A8 263:752 JLINK_ReadMemEx(0x40005C00, 0x0004 Bytes, ..., Flags = 0x02000004) -- CPU_ReadMem(4 bytes @ 0x40005C00) - Data: 01 00 00 00  returns 0x04 (0001ms, 4876ms total)
T47A8 263:753 JLINK_ReadMemEx(0x40005C04, 0x0004 Bytes, ..., Flags = 0x02000004) -- CPU_ReadMem(4 bytes @ 0x40005C04) - Data: 2A 00 00 00  returns 0x04 (0002ms, 4878ms total)
T47A8 263:755 JLINK_ReadMemEx(0x40005C08, 0x0004 Bytes, ..., Flags = 0x02000004) -- CPU_ReadMem(4 bytes @ 0x40005C08) - Data: 3E 40 00 00  returns 0x04 (0001ms, 4879ms total)
T47A8 263:756 JLINK_ReadMemEx(0x40005C0C, 0x0004 Bytes, ..., Flags = 0x02000004) -- CPU_ReadMem(4 bytes @ 0x40005C0C) - Data: 00 00 00 00  returns 0x04 (0001ms, 4880ms total)
T47A8 263:757 JLINK_ReadMemEx(0x40005C10, 0x0004 Bytes, ..., Flags = 0x02000004) -- CPU_ReadMem(4 bytes @ 0x40005C10) - Data: 11 00 00 00  returns 0x04 (0001ms, 4881ms total)
T47A8 263:758 JLINK_ReadMemEx(0x40005C14, 0x0004 Bytes, ..., Flags = 0x02000004) -- CPU_ReadMem(4 bytes @ 0x40005C14) - Data: 00 00 00 00  returns 0x04 (0001ms, 4882ms total)
T47A8 263:759 JLINK_ReadMemEx(0x40005C18, 0x0004 Bytes, ..., Flags = 0x02000004) -- CPU_ReadMem(4 bytes @ 0x40005C18) - Data: 00 00 00 00  returns 0x04 (0001ms, 4883ms total)
T47A8 263:760 JLINK_ReadMemEx(0x40005C1C, 0x0004 Bytes, ..., Flags = 0x02000004) -- CPU_ReadMem(4 bytes @ 0x40005C1C) - Data: 04 C0 00 00  returns 0x04 (0002ms, 4885ms total)
T47A8 263:762 JLINK_ReadMemEx(0x40005C20, 0x0004 Bytes, ..., Flags = 0x02000004) -- CPU_ReadMem(4 bytes @ 0x40005C20) - Data: 0D 00 00 00  returns 0x04 (0001ms, 4886ms total)
T47A8 263:763 JLINK_ReadMemEx(0x40005C24, 0x0004 Bytes, ..., Flags = 0x02000004) -- CPU_ReadMem(4 bytes @ 0x40005C24) - Data: 00 00 00 00  returns 0x04 (0001ms, 4887ms total)
T47A8 263:764 JLINK_ReadMemEx(0x40005C24, 0x0004 Bytes, ..., Flags = 0x02000004) -- CPU_ReadMem(4 bytes @ 0x40005C24) - Data: 00 00 00 00  returns 0x04 (0001ms, 4888ms total)
T4C9C 263:766 JLINK_IsHalted()  returns FALSE (0001ms, 4889ms total)
T4C9C 263:868 JLINK_IsHalted()  returns FALSE (0001ms, 4889ms total)
T4C9C 263:970 JLINK_IsHalted()  returns FALSE (0001ms, 4889ms total)
T4C9C 264:072 JLINK_IsHalted()  returns FALSE (0001ms, 4889ms total)
T4C9C 264:173 JLINK_IsHalted()  returns FALSE (0001ms, 4889ms total)
T4C9C 264:275 JLINK_ReadMemU32(0xE0001004, 0x0001 Items, ...) - Data: 0D 4D 30 0A  returns 0x01 (0000ms, 4888ms total)
T47A8 264:275 JLINK_ReadMemEx(0x40005C00, 0x0024 Bytes, ..., Flags = 0x02000004) -- CPU_ReadMem(36 bytes @ 0x40005C00) - Data: 01 00 00 00 2A 00 00 00 3E 40 00 00 00 00 00 00 ...  returns 0x24 (0001ms, 4889ms total)
T47A8 264:276 JLINK_ReadMemEx(0x40005C00, 0x0004 Bytes, ..., Flags = 0x02000004) -- CPU_ReadMem(4 bytes @ 0x40005C00) - Data: 01 00 00 00  returns 0x04 (0001ms, 4890ms total)
T47A8 264:277 JLINK_ReadMemEx(0x40005C04, 0x0004 Bytes, ..., Flags = 0x02000004) -- CPU_ReadMem(4 bytes @ 0x40005C04) - Data: 2A 00 00 00  returns 0x04 (0001ms, 4891ms total)
T47A8 264:278 JLINK_ReadMemEx(0x40005C08, 0x0004 Bytes, ..., Flags = 0x02000004) -- CPU_ReadMem(4 bytes @ 0x40005C08) - Data: 3E 40 00 00  returns 0x04 (0002ms, 4893ms total)
T47A8 264:280 JLINK_ReadMemEx(0x40005C0C, 0x0004 Bytes, ..., Flags = 0x02000004) -- CPU_ReadMem(4 bytes @ 0x40005C0C) - Data: 00 00 00 00  returns 0x04 (0001ms, 4894ms total)
T47A8 264:281 JLINK_ReadMemEx(0x40005C10, 0x0004 Bytes, ..., Flags = 0x02000004) -- CPU_ReadMem(4 bytes @ 0x40005C10) - Data: 11 00 00 00  returns 0x04 (0001ms, 4895ms total)
T47A8 264:282 JLINK_ReadMemEx(0x40005C14, 0x0004 Bytes, ..., Flags = 0x02000004) -- CPU_ReadMem(4 bytes @ 0x40005C14) - Data: 00 00 00 00  returns 0x04 (0001ms, 4896ms total)
T47A8 264:283 JLINK_ReadMemEx(0x40005C18, 0x0004 Bytes, ..., Flags = 0x02000004) -- CPU_ReadMem(4 bytes @ 0x40005C18) - Data: 00 00 00 00  returns 0x04 (0001ms, 4897ms total)
T47A8 264:284 JLINK_ReadMemEx(0x40005C1C, 0x0004 Bytes, ..., Flags = 0x02000004) -- CPU_ReadMem(4 bytes @ 0x40005C1C) - Data: 04 C0 00 00  returns 0x04 (0002ms, 4899ms total)
T47A8 264:286 JLINK_ReadMemEx(0x40005C20, 0x0004 Bytes, ..., Flags = 0x02000004) -- CPU_ReadMem(4 bytes @ 0x40005C20) - Data: 0D 00 00 00  returns 0x04 (0001ms, 4900ms total)
T47A8 264:287 JLINK_ReadMemEx(0x40005C24, 0x0004 Bytes, ..., Flags = 0x02000004) -- CPU_ReadMem(4 bytes @ 0x40005C24) - Data: 00 00 00 00  returns 0x04 (0001ms, 4901ms total)
T47A8 264:288 JLINK_ReadMemEx(0x40005C24, 0x0004 Bytes, ..., Flags = 0x02000004) -- CPU_ReadMem(4 bytes @ 0x40005C24) - Data: 00 00 00 00  returns 0x04 (0001ms, 4902ms total)
T4C9C 264:290 JLINK_IsHalted()  returns FALSE (0001ms, 4903ms total)
T4C9C 264:391 JLINK_IsHalted()  returns FALSE (0001ms, 4903ms total)
T4C9C 264:493 JLINK_IsHalted()  returns FALSE (0000ms, 4902ms total)
T4C9C 264:594 JLINK_IsHalted()  returns FALSE (0001ms, 4903ms total)
T4C9C 264:696 JLINK_IsHalted()  returns FALSE (0001ms, 4903ms total)
T4C9C 264:798 JLINK_ReadMemU32(0xE0001004, 0x0001 Items, ...) - Data: 0D 4D 30 0A  returns 0x01 (0000ms, 4902ms total)
T47A8 264:798 JLINK_ReadMemEx(0x40005C00, 0x0024 Bytes, ..., Flags = 0x02000004) -- CPU_ReadMem(36 bytes @ 0x40005C00) - Data: 01 00 00 00 2A 00 00 00 3E 40 00 00 00 00 00 00 ...  returns 0x24 (0002ms, 4904ms total)
T47A8 264:800 JLINK_ReadMemEx(0x40005C00, 0x0004 Bytes, ..., Flags = 0x02000004) -- CPU_ReadMem(4 bytes @ 0x40005C00) - Data: 01 00 00 00  returns 0x04 (0001ms, 4905ms total)
T47A8 264:801 JLINK_ReadMemEx(0x40005C04, 0x0004 Bytes, ..., Flags = 0x02000004) -- CPU_ReadMem(4 bytes @ 0x40005C04) - Data: 2A 00 00 00  returns 0x04 (0001ms, 4906ms total)
T47A8 264:802 JLINK_ReadMemEx(0x40005C08, 0x0004 Bytes, ..., Flags = 0x02000004) -- CPU_ReadMem(4 bytes @ 0x40005C08) - Data: 3E 40 00 00  returns 0x04 (0001ms, 4907ms total)
T47A8 264:803 JLINK_ReadMemEx(0x40005C0C, 0x0004 Bytes, ..., Flags = 0x02000004) -- CPU_ReadMem(4 bytes @ 0x40005C0C) - Data: 00 00 00 00  returns 0x04 (0001ms, 4908ms total)
T47A8 264:804 JLINK_ReadMemEx(0x40005C10, 0x0004 Bytes, ..., Flags = 0x02000004) -- CPU_ReadMem(4 bytes @ 0x40005C10) - Data: 11 00 00 00  returns 0x04 (0001ms, 4909ms total)
T47A8 264:805 JLINK_ReadMemEx(0x40005C14, 0x0004 Bytes, ..., Flags = 0x02000004) -- CPU_ReadMem(4 bytes @ 0x40005C14) - Data: 00 00 00 00  returns 0x04 (0001ms, 4910ms total)
T47A8 264:806 JLINK_ReadMemEx(0x40005C18, 0x0004 Bytes, ..., Flags = 0x02000004) -- CPU_ReadMem(4 bytes @ 0x40005C18) - Data: 00 00 00 00  returns 0x04 (0001ms, 4911ms total)
T47A8 264:808 JLINK_ReadMemEx(0x40005C1C, 0x0004 Bytes, ..., Flags = 0x02000004) -- CPU_ReadMem(4 bytes @ 0x40005C1C) - Data: 04 C0 00 00  returns 0x04 (0001ms, 4912ms total)
T47A8 264:809 JLINK_ReadMemEx(0x40005C20, 0x0004 Bytes, ..., Flags = 0x02000004) -- CPU_ReadMem(4 bytes @ 0x40005C20) - Data: 0D 00 00 00  returns 0x04 (0001ms, 4913ms total)
T47A8 264:810 JLINK_ReadMemEx(0x40005C24, 0x0004 Bytes, ..., Flags = 0x02000004) -- CPU_ReadMem(4 bytes @ 0x40005C24) - Data: 00 00 00 00  returns 0x04 (0001ms, 4914ms total)
T47A8 264:811 JLINK_ReadMemEx(0x40005C24, 0x0004 Bytes, ..., Flags = 0x02000004) -- CPU_ReadMem(4 bytes @ 0x40005C24) - Data: 00 00 00 00  returns 0x04 (0001ms, 4915ms total)
T4C9C 264:813 JLINK_IsHalted()  returns FALSE (0001ms, 4916ms total)
T4C9C 264:915 JLINK_IsHalted()  returns FALSE (0001ms, 4916ms total)
T4C9C 265:017 JLINK_Halt()  returns 0x00 (0004ms, 4919ms total)
T4C9C 265:021 JLINK_IsHalted()  returns TRUE (0000ms, 4919ms total)
T4C9C 265:021 JLINK_IsHalted()  returns TRUE (0000ms, 4919ms total)
T4C9C 265:021 JLINK_IsHalted()  returns TRUE (0000ms, 4919ms total)
T4C9C 265:021 JLINK_ReadReg(R15 (PC))  returns 0x08002A20 (0000ms, 4919ms total)
T4C9C 265:021 JLINK_ReadReg(XPSR)  returns 0x21000000 (0000ms, 4919ms total)
T4C9C 265:021 JLINK_ClrBPEx(BPHandle = 0x00000007)  returns 0x00 (0000ms, 4919ms total)
T4C9C 265:021 JLINK_ClrBPEx(BPHandle = 0x00000008)  returns 0x00 (0001ms, 4920ms total)
T4C9C 265:022 JLINK_ReadMemU32(0xE000ED30, 0x0001 Items, ...) -- CPU_ReadMem(4 bytes @ 0xE000ED30) - Data: 01 00 00 00  returns 0x01 (0001ms, 4921ms total)
